Time [s],Packet ID,MOSI,MISO
4.20668033333333,0,C (0x43),C (0x43)
4.20698283333333,1,E (0x45),E (0x45)
4.20728533333333,2,G (0x47),G (0x47)
4.20758783333333,3,I (0x49),I (0x49)
4.20789033333333,4,K (0x4B),K (0x4B)
4.20819283333333,5,M (0x4D),M (0x4D)
4.20849533333333,6,O (0x4F),O (0x4F)
4.20879783333333,7,Q (0x51),Q (0x51)
4.209100375,8,S (0x53),S (0x53)
4.209402875,9,U (0x55),U (0x55)
4.209705375,10,W (0x57),W (0x57)
4.210007875,11,Y (0x59),Y (0x59)
4.210310375,12,[ (0x5B),[ (0x5B)
4.210612875,13,] (0x5D),] (0x5D)
4.210915375,14,_ (0x5F),_ (0x5F)
4.211217875,15,a (0x61),a (0x61)
4.211520375,16,c (0x63),c (0x63)
4.21182291666667,17,e (0x65),e (0x65)
4.21212541666667,18,g (0x67),g (0x67)
4.21242791666667,19,i (0x69),i (0x69)
4.21273041666667,20,k (0x6B),k (0x6B)
4.21303291666667,21,m (0x6D),m (0x6D)
4.21333541666667,22,o (0x6F),o (0x6F)
4.21363791666667,23,q (0x71),q (0x71)
4.21394041666667,24,s (0x73),s (0x73)
4.21424291666667,25,u (0x75),u (0x75)
4.21454541666667,26,w (0x77),w (0x77)
4.21484795833333,27,y (0x79),y (0x79)
4.21515045833333,28,{ (0x7B),{ (0x7B)
4.21545283333333,29,A (0x41),A (0x41)
4.21575533333333,30,C (0x43),C (0x43)
4.21605783333333,31,E (0x45),E (0x45)
4.216360375,32,G (0x47),G (0x47)
4.216662875,33,I (0x49),I (0x49)
4.216965375,34,K (0x4B),K (0x4B)
4.217267875,35,M (0x4D),M (0x4D)
4.217570375,36,O (0x4F),O (0x4F)
4.217872875,37,Q (0x51),Q (0x51)
4.218175375,38,S (0x53),S (0x53)
4.218477875,39,U (0x55),U (0x55)
4.218780375,40,W (0x57),W (0x57)
4.21908291666667,41,Y (0x59),Y (0x59)
4.21938541666667,42,[ (0x5B),[ (0x5B)
4.21968791666667,43,] (0x5D),] (0x5D)
4.21999041666667,44,_ (0x5F),_ (0x5F)
4.22029291666667,45,a (0x61),a (0x61)
4.22059541666667,46,c (0x63),c (0x63)
4.22089791666667,47,e (0x65),e (0x65)
4.22120041666667,48,g (0x67),g (0x67)
4.22150291666667,49,i (0x69),i (0x69)
4.22180541666667,50,k (0x6B),k (0x6B)
4.22210795833333,51,m (0x6D),m (0x6D)
4.22241045833333,52,o (0x6F),o (0x6F)
4.22271295833333,53,q (0x71),q (0x71)
4.22301545833333,54,s (0x73),s (0x73)
4.22331795833333,55,u (0x75),u (0x75)
4.22362045833333,56,w (0x77),w (0x77)
4.22392295833333,57,y (0x79),y (0x79)
4.22422545833333,58,{ (0x7B),{ (0x7B)
4.224527875,59,A (0x41),A (0x41)
4.224830375,60,C (0x43),C (0x43)
4.225132875,61,E (0x45),E (0x45)
4.225435375,62,G (0x47),G (0x47)
4.225737875,63,I (0x49),I (0x49)
4.226040375,64,K (0x4B),K (0x4B)
4.22634291666667,65,M (0x4D),M (0x4D)
4.22664541666667,66,O (0x4F),O (0x4F)
4.22694791666667,67,Q (0x51),Q (0x51)
4.22725041666667,68,S (0x53),S (0x53)
4.22755291666667,69,U (0x55),U (0x55)
4.22785541666667,70,W (0x57),W (0x57)
4.22815791666667,71,Y (0x59),Y (0x59)
4.22846041666667,72,[ (0x5B),[ (0x5B)
4.22876291666667,73,] (0x5D),] (0x5D)
4.22906541666667,74,_ (0x5F),_ (0x5F)
4.22936795833333,75,a (0x61),a (0x61)
4.22967045833333,76,c (0x63),c (0x63)
4.22997295833333,77,e (0x65),e (0x65)
4.23027545833333,78,g (0x67),g (0x67)
4.23057795833333,79,i (0x69),i (0x69)
4.23088045833333,80,k (0x6B),k (0x6B)
4.23118295833333,81,m (0x6D),m (0x6D)
4.23148545833333,82,o (0x6F),o (0x6F)
4.23178795833333,83,q (0x71),q (0x71)
4.2320905,84,s (0x73),s (0x73)
4.232393,85,u (0x75),u (0x75)
4.2326955,86,w (0x77),w (0x77)
4.232998,87,y (0x79),y (0x79)
4.2333005,88,{ (0x7B),{ (0x7B)
4.23360291666667,89,A (0x41),A (0x41)
4.23390541666667,90,C (0x43),C (0x43)
4.23420791666667,91,E (0x45),E (0x45)
4.23451041666667,92,G (0x47),G (0x47)
4.23481291666667,93,I (0x49),I (0x49)
4.23511541666667,94,K (0x4B),K (0x4B)
4.23541791666667,95,M (0x4D),M (0x4D)
4.23572041666667,96,O (0x4F),O (0x4F)
4.23602291666667,97,Q (0x51),Q (0x51)
4.23632545833333,98,S (0x53),S (0x53)
4.23662795833333,99,U (0x55),U (0x55)
4.23693045833333,100,W (0x57),W (0x57)
4.23723295833333,101,Y (0x59),Y (0x59)
4.23753545833333,102,[ (0x5B),[ (0x5B)
4.23783795833333,103,] (0x5D),] (0x5D)
4.23814045833333,104,_ (0x5F),_ (0x5F)
4.23844295833333,105,a (0x61),a (0x61)
4.23874545833333,106,c (0x63),c (0x63)
4.23904795833333,107,e (0x65),e (0x65)
4.2393505,108,g (0x67),g (0x67)
4.239653,109,i (0x69),i (0x69)
4.2399555,110,k (0x6B),k (0x6B)
4.240258,111,m (0x6D),m (0x6D)
4.2405605,112,o (0x6F),o (0x6F)
4.240863,113,q (0x71),q (0x71)
4.2411655,114,s (0x73),s (0x73)
4.241468,115,u (0x75),u (0x75)
4.2417705,116,w (0x77),w (0x77)
4.24207304166667,117,y (0x79),y (0x79)
4.24237554166667,118,{ (0x7B),{ (0x7B)
4.24267791666667,119,A (0x41),A (0x41)
4.24298041666667,120,C (0x43),C (0x43)
4.24328291666667,121,E (0x45),E (0x45)
4.24358545833333,122,G (0x47),G (0x47)
4.24388795833333,123,I (0x49),I (0x49)
4.24419045833333,124,K (0x4B),K (0x4B)
4.24449295833333,125,M (0x4D),M (0x4D)
4.24479545833333,126,O (0x4F),O (0x4F)
4.24509795833333,127,Q (0x51),Q (0x51)
4.24540045833333,128,S (0x53),S (0x53)
4.24570295833333,129,U (0x55),U (0x55)
4.24600545833333,130,W (0x57),W (0x57)
4.24630795833333,131,Y (0x59),Y (0x59)
4.2466105,132,[ (0x5B),[ (0x5B)
4.246913,133,] (0x5D),] (0x5D)
4.2472155,134,_ (0x5F),_ (0x5F)
4.247518,135,a (0x61),a (0x61)
4.2478205,136,c (0x63),c (0x63)
4.248123,137,e (0x65),e (0x65)
4.2484255,138,g (0x67),g (0x67)
4.248728,139,i (0x69),i (0x69)
4.2490305,140,k (0x6B),k (0x6B)
4.24933304166667,141,m (0x6D),m (0x6D)
4.24963554166667,142,o (0x6F),o (0x6F)
4.24993804166667,143,q (0x71),q (0x71)
4.25024054166667,144,s (0x73),s (0x73)
4.25054304166667,145,u (0x75),u (0x75)
4.25084554166667,146,w (0x77),w (0x77)
4.25114804166667,147,y (0x79),y (0x79)
4.25145054166667,148,{ (0x7B),{ (0x7B)
4.25175295833333,149,A (0x41),A (0x41)
4.25205545833333,150,C (0x43),C (0x43)
4.25235795833333,151,E (0x45),E (0x45)
4.25266045833333,152,G (0x47),G (0x47)
4.25296295833333,153,I (0x49),I (0x49)
4.25326545833333,154,K (0x4B),K (0x4B)
4.25356795833333,155,M (0x4D),M (0x4D)
4.2538705,156,O (0x4F),O (0x4F)
4.254173,157,Q (0x51),Q (0x51)
4.2544755,158,S (0x53),S (0x53)
4.254778,159,U (0x55),U (0x55)
4.2550805,160,W (0x57),W (0x57)
4.255383,161,Y (0x59),Y (0x59)
4.2556855,162,[ (0x5B),[ (0x5B)
4.255988,163,] (0x5D),] (0x5D)
4.2562905,164,_ (0x5F),_ (0x5F)
4.25659304166667,165,a (0x61),a (0x61)
4.25689554166667,166,c (0x63),c (0x63)
4.25719804166667,167,e (0x65),e (0x65)
4.25750054166667,168,g (0x67),g (0x67)
4.25780304166667,169,i (0x69),i (0x69)
4.25810554166667,170,k (0x6B),k (0x6B)
4.25840804166667,171,m (0x6D),m (0x6D)
4.25871054166667,172,o (0x6F),o (0x6F)
4.25901304166667,173,q (0x71),q (0x71)
4.25931554166667,174,s (0x73),s (0x73)
4.25961808333333,175,u (0x75),u (0x75)
4.25992058333333,176,w (0x77),w (0x77)
4.26022308333333,177,y (0x79),y (0x79)
4.26052558333333,178,{ (0x7B),{ (0x7B)
4.26082795833333,179,A (0x41),A (0x41)
4.2611305,180,C (0x43),C (0x43)
4.261433,181,E (0x45),E (0x45)
4.2617355,182,G (0x47),G (0x47)
4.262038,183,I (0x49),I (0x49)
4.2623405,184,K (0x4B),K (0x4B)
4.262643,185,M (0x4D),M (0x4D)
4.2629455,186,O (0x4F),O (0x4F)
4.263248,187,Q (0x51),Q (0x51)
4.2635505,188,S (0x53),S (0x53)
4.26385304166667,189,U (0x55),U (0x55)
4.26415554166667,190,W (0x57),W (0x57)
4.26445804166667,191,Y (0x59),Y (0x59)
4.26476054166667,192,[ (0x5B),[ (0x5B)
4.26506304166667,193,] (0x5D),] (0x5D)
4.26536554166667,194,_ (0x5F),_ (0x5F)
4.26566804166667,195,a (0x61),a (0x61)
4.26597054166667,196,c (0x63),c (0x63)
4.26627304166667,197,e (0x65),e (0x65)
4.26657554166667,198,g (0x67),g (0x67)
4.26687808333333,199,i (0x69),i (0x69)
4.26718058333333,200,k (0x6B),k (0x6B)
4.26748308333333,201,m (0x6D),m (0x6D)
4.26778558333333,202,o (0x6F),o (0x6F)
4.26808808333333,203,q (0x71),q (0x71)
4.26839058333333,204,s (0x73),s (0x73)
4.26869308333333,205,u (0x75),u (0x75)
4.26899558333333,206,w (0x77),w (0x77)
4.26929808333333,207,y (0x79),y (0x79)
4.269600625,208,{ (0x7B),{ (0x7B)
4.269903,209,A (0x41),A (0x41)
4.2702055,210,C (0x43),C (0x43)
4.270508,211,E (0x45),E (0x45)
4.2708105,212,G (0x47),G (0x47)
4.27111304166667,213,I (0x49),I (0x49)
4.27141554166667,214,K (0x4B),K (0x4B)
4.27171804166667,215,M (0x4D),M (0x4D)
4.27202054166667,216,O (0x4F),O (0x4F)
4.27232304166667,217,Q (0x51),Q (0x51)
4.27262554166667,218,S (0x53),S (0x53)
4.27292804166667,219,U (0x55),U (0x55)
4.27323054166667,220,W (0x57),W (0x57)
4.27353304166667,221,Y (0x59),Y (0x59)
4.27383558333333,222,[ (0x5B),[ (0x5B)
4.27413808333333,223,] (0x5D),] (0x5D)
4.27444058333333,224,_ (0x5F),_ (0x5F)
4.27474308333333,225,a (0x61),a (0x61)
4.27504558333333,226,c (0x63),c (0x63)
4.27534808333333,227,e (0x65),e (0x65)
4.27565058333333,228,g (0x67),g (0x67)
4.27595308333333,229,i (0x69),i (0x69)
4.27625558333333,230,k (0x6B),k (0x6B)
4.27655808333333,231,m (0x6D),m (0x6D)
4.276860625,232,o (0x6F),o (0x6F)
4.277163125,233,q (0x71),q (0x71)
4.277465625,234,s (0x73),s (0x73)
4.277768125,235,u (0x75),u (0x75)
4.278070625,236,w (0x77),w (0x77)
4.278373125,237,y (0x79),y (0x79)
4.278675625,238,{ (0x7B),{ (0x7B)
4.27897804166667,239,A (0x41),A (0x41)
4.27928054166667,240,C (0x43),C (0x43)
4.27958304166667,241,E (0x45),E (0x45)
4.27988554166667,242,G (0x47),G (0x47)
4.28018804166667,243,I (0x49),I (0x49)
4.28049054166667,244,K (0x4B),K (0x4B)
4.28079304166667,245,M (0x4D),M (0x4D)
4.28109558333333,246,O (0x4F),O (0x4F)
4.28139808333333,247,Q (0x51),Q (0x51)
4.28170058333333,248,S (0x53),S (0x53)
4.28200308333333,249,U (0x55),U (0x55)
4.28230558333333,250,W (0x57),W (0x57)
4.28260808333333,251,Y (0x59),Y (0x59)
4.28291058333333,252,[ (0x5B),[ (0x5B)
4.28321308333333,253,] (0x5D),] (0x5D)
4.28351558333333,254,_ (0x5F),_ (0x5F)
4.28381808333333,255,a (0x61),a (0x61)
4.284120625,256,c (0x63),c (0x63)
4.284423125,257,e (0x65),e (0x65)
4.284725625,258,g (0x67),g (0x67)
4.285028125,259,i (0x69),i (0x69)
4.285330625,260,k (0x6B),k (0x6B)
4.285633125,261,m (0x6D),m (0x6D)
4.285935625,262,o (0x6F),o (0x6F)
4.286238125,263,q (0x71),q (0x71)
4.286540625,264,s (0x73),s (0x73)
4.28684316666667,265,u (0x75),u (0x75)
4.28714566666667,266,w (0x77),w (0x77)
4.28744816666667,267,y (0x79),y (0x79)
4.28775066666667,268,{ (0x7B),{ (0x7B)
4.28805304166667,269,A (0x41),A (0x41)
4.28835558333333,270,C (0x43),C (0x43)
4.28865808333333,271,E (0x45),E (0x45)
4.28896058333333,272,G (0x47),G (0x47)
4.28926308333333,273,I (0x49),I (0x49)
4.28956558333333,274,K (0x4B),K (0x4B)
4.28986808333333,275,M (0x4D),M (0x4D)
4.29017058333333,276,O (0x4F),O (0x4F)
4.29047308333333,277,Q (0x51),Q (0x51)
4.29077558333333,278,S (0x53),S (0x53)
4.29107808333333,279,U (0x55),U (0x55)
4.291380625,280,W (0x57),W (0x57)
4.291683125,281,Y (0x59),Y (0x59)
4.291985625,282,[ (0x5B),[ (0x5B)
4.292288125,283,] (0x5D),] (0x5D)
4.292590625,284,_ (0x5F),_ (0x5F)
4.292893125,285,a (0x61),a (0x61)
4.293195625,286,c (0x63),c (0x63)
4.293498125,287,e (0x65),e (0x65)
4.293800625,288,g (0x67),g (0x67)
4.29410316666667,289,i (0x69),i (0x69)
4.29440566666667,290,k (0x6B),k (0x6B)
4.29470816666667,291,m (0x6D),m (0x6D)
4.29501066666667,292,o (0x6F),o (0x6F)
4.29531316666667,293,q (0x71),q (0x71)
4.29561566666667,294,s (0x73),s (0x73)
4.29591816666667,295,u (0x75),u (0x75)
4.29622066666667,296,w (0x77),w (0x77)
4.29652316666667,297,y (0x79),y (0x79)
4.29682566666667,298,{ (0x7B),{ (0x7B)
4.29712808333333,299,A (0x41),A (0x41)
4.29743058333333,300,C (0x43),C (0x43)
4.29773308333333,301,E (0x45),E (0x45)
4.29803558333333,302,G (0x47),G (0x47)
4.298338125,303,I (0x49),I (0x49)
4.298640625,304,K (0x4B),K (0x4B)
4.298943125,305,M (0x4D),M (0x4D)
4.299245625,306,O (0x4F),O (0x4F)
4.299548125,307,Q (0x51),Q (0x51)
4.299850625,308,S (0x53),S (0x53)
4.300153125,309,U (0x55),U (0x55)
4.300455625,310,W (0x57),W (0x57)
4.300758125,311,Y (0x59),Y (0x59)
4.301060625,312,[ (0x5B),[ (0x5B)
4.30136316666667,313,] (0x5D),] (0x5D)
4.30166566666667,314,_ (0x5F),_ (0x5F)
4.30196816666667,315,a (0x61),a (0x61)
4.30227066666667,316,c (0x63),c (0x63)
4.30257316666667,317,e (0x65),e (0x65)
4.30287566666667,318,g (0x67),g (0x67)
4.30317816666667,319,i (0x69),i (0x69)
4.30348066666667,320,k (0x6B),k (0x6B)
4.30378316666667,321,m (0x6D),m (0x6D)
4.30408570833333,322,o (0x6F),o (0x6F)
4.30438820833333,323,q (0x71),q (0x71)
4.30469070833333,324,s (0x73),s (0x73)
4.30499320833333,325,u (0x75),u (0x75)
4.30529570833333,326,w (0x77),w (0x77)
4.30559820833333,327,y (0x79),y (0x79)
4.30590070833333,328,{ (0x7B),{ (0x7B)
4.306203125,329,A (0x41),A (0x41)
4.306505625,330,C (0x43),C (0x43)
4.306808125,331,E (0x45),E (0x45)
4.307110625,332,G (0x47),G (0x47)
4.307413125,333,I (0x49),I (0x49)
4.307715625,334,K (0x4B),K (0x4B)
4.308018125,335,M (0x4D),M (0x4D)
4.308320625,336,O (0x4F),O (0x4F)
4.30862316666667,337,Q (0x51),Q (0x51)
4.30892566666667,338,S (0x53),S (0x53)
4.30922816666667,339,U (0x55),U (0x55)
4.30953066666667,340,W (0x57),W (0x57)
4.30983316666667,341,Y (0x59),Y (0x59)
4.31013566666667,342,[ (0x5B),[ (0x5B)
4.31043816666667,343,] (0x5D),] (0x5D)
4.31074066666667,344,_ (0x5F),_ (0x5F)
4.31104316666667,345,a (0x61),a (0x61)
4.31134570833333,346,c (0x63),c (0x63)
4.31164820833333,347,e (0x65),e (0x65)
4.31195070833333,348,g (0x67),g (0x67)
4.31225320833333,349,i (0x69),i (0x69)
4.31255570833333,350,k (0x6B),k (0x6B)
4.31285820833333,351,m (0x6D),m (0x6D)
4.31316070833333,352,o (0x6F),o (0x6F)
4.31346320833333,353,q (0x71),q (0x71)
4.31376570833333,354,s (0x73),s (0x73)
4.31406820833333,355,u (0x75),u (0x75)
4.31437075,356,w (0x77),w (0x77)
4.31467325,357,y (0x79),y (0x79)
4.31497575,358,{ (0x7B),{ (0x7B)
4.315278125,359,A (0x41),A (0x41)
4.315580625,360,C (0x43),C (0x43)
4.31588316666667,361,E (0x45),E (0x45)
4.31618566666667,362,G (0x47),G (0x47)
4.31648816666667,363,I (0x49),I (0x49)
4.31679066666667,364,K (0x4B),K (0x4B)
4.31709316666667,365,M (0x4D),M (0x4D)
4.31739566666667,366,O (0x4F),O (0x4F)
4.31769816666667,367,Q (0x51),Q (0x51)
4.31800066666667,368,S (0x53),S (0x53)
4.31830316666667,369,U (0x55),U (0x55)
4.31860570833333,370,W (0x57),W (0x57)
4.31890820833333,371,Y (0x59),Y (0x59)
4.31921070833333,372,[ (0x5B),[ (0x5B)
4.31951320833333,373,] (0x5D),] (0x5D)
4.31981570833333,374,_ (0x5F),_ (0x5F)
4.32011820833333,375,a (0x61),a (0x61)
4.32042070833333,376,c (0x63),c (0x63)
4.32072320833333,377,e (0x65),e (0x65)
4.32102570833333,378,g (0x67),g (0x67)
4.32132820833333,379,i (0x69),i (0x69)
4.32163075,380,k (0x6B),k (0x6B)
4.32193325,381,m (0x6D),m (0x6D)
4.32223575,382,o (0x6F),o (0x6F)
4.32253825,383,q (0x71),q (0x71)
4.32284075,384,s (0x73),s (0x73)
4.32314325,385,u (0x75),u (0x75)
4.32344575,386,w (0x77),w (0x77)
4.32374825,387,y (0x79),y (0x79)
4.32405075,388,{ (0x7B),{ (0x7B)
4.32435316666667,389,A (0x41),A (0x41)
4.32465566666667,390,C (0x43),C (0x43)
4.32495816666667,391,E (0x45),E (0x45)
4.32526066666667,392,G (0x47),G (0x47)
4.32556316666667,393,I (0x49),I (0x49)
4.32586570833333,394,K (0x4B),K (0x4B)
4.32616820833333,395,M (0x4D),M (0x4D)
4.32647070833333,396,O (0x4F),O (0x4F)
4.32677320833333,397,Q (0x51),Q (0x51)
4.32707570833333,398,S (0x53),S (0x53)
4.32737820833333,399,U (0x55),U (0x55)
4.32768070833333,400,W (0x57),W (0x57)
4.32798320833333,401,Y (0x59),Y (0x59)
4.32828570833333,402,[ (0x5B),[ (0x5B)
4.32858820833333,403,] (0x5D),] (0x5D)
4.32889075,404,_ (0x5F),_ (0x5F)
4.32919325,405,a (0x61),a (0x61)
4.32949575,406,c (0x63),c (0x63)
4.32979825,407,e (0x65),e (0x65)
4.33010075,408,g (0x67),g (0x67)
4.33040325,409,i (0x69),i (0x69)
4.33070575,410,k (0x6B),k (0x6B)
4.33100825,411,m (0x6D),m (0x6D)
4.33131075,412,o (0x6F),o (0x6F)
4.33161329166667,413,q (0x71),q (0x71)
4.33191579166667,414,s (0x73),s (0x73)
4.33221829166667,415,u (0x75),u (0x75)
4.33252079166667,416,w (0x77),w (0x77)
4.33282329166667,417,y (0x79),y (0x79)
4.33312579166667,418,{ (0x7B),{ (0x7B)
4.33342820833333,419,A (0x41),A (0x41)
4.33373070833333,420,C (0x43),C (0x43)
4.33403320833333,421,E (0x45),E (0x45)
4.33433570833333,422,G (0x47),G (0x47)
4.33463820833333,423,I (0x49),I (0x49)
4.33494070833333,424,K (0x4B),K (0x4B)
4.33524320833333,425,M (0x4D),M (0x4D)
4.33554570833333,426,O (0x4F),O (0x4F)
4.33584825,427,Q (0x51),Q (0x51)
4.33615075,428,S (0x53),S (0x53)
4.33645325,429,U (0x55),U (0x55)
4.33675575,430,W (0x57),W (0x57)
4.33705825,431,Y (0x59),Y (0x59)
4.33736075,432,[ (0x5B),[ (0x5B)
4.33766325,433,] (0x5D),] (0x5D)
4.33796575,434,_ (0x5F),_ (0x5F)
4.33826825,435,a (0x61),a (0x61)
4.33857075,436,c (0x63),c (0x63)
4.33887329166667,437,e (0x65),e (0x65)
4.33917579166667,438,g (0x67),g (0x67)
4.33947829166667,439,i (0x69),i (0x69)
4.33978079166667,440,k (0x6B),k (0x6B)
4.34008329166667,441,m (0x6D),m (0x6D)
4.34038579166667,442,o (0x6F),o (0x6F)
4.34068829166667,443,q (0x71),q (0x71)
4.34099079166667,444,s (0x73),s (0x73)
4.34129329166667,445,u (0x75),u (0x75)
4.34159583333333,446,w (0x77),w (0x77)
4.34189833333333,447,y (0x79),y (0x79)
4.34220083333333,448,{ (0x7B),{ (0x7B)
4.34250320833333,449,A (0x41),A (0x41)
4.34280570833333,450,C (0x43),C (0x43)
4.34310825,451,E (0x45),E (0x45)
4.34341075,452,G (0x47),G (0x47)
4.34371325,453,I (0x49),I (0x49)
4.34401575,454,K (0x4B),K (0x4B)
4.34431825,455,M (0x4D),M (0x4D)
4.34462075,456,O (0x4F),O (0x4F)
4.34492325,457,Q (0x51),Q (0x51)
4.34522575,458,S (0x53),S (0x53)
4.34552825,459,U (0x55),U (0x55)
4.34583075,460,W (0x57),W (0x57)
4.34613329166667,461,Y (0x59),Y (0x59)
4.34643579166667,462,[ (0x5B),[ (0x5B)
4.34673829166667,463,] (0x5D),] (0x5D)
4.34704079166667,464,_ (0x5F),_ (0x5F)
4.34734329166667,465,a (0x61),a (0x61)
4.34764579166667,466,c (0x63),c (0x63)
4.34794829166667,467,e (0x65),e (0x65)
4.34825079166667,468,g (0x67),g (0x67)
4.34855329166667,469,i (0x69),i (0x69)
4.34885583333333,470,k (0x6B),k (0x6B)
4.34915833333333,471,m (0x6D),m (0x6D)
4.34946083333333,472,o (0x6F),o (0x6F)
4.34976333333333,473,q (0x71),q (0x71)
4.35006583333333,474,s (0x73),s (0x73)
4.35036833333333,475,u (0x75),u (0x75)
4.35067083333333,476,w (0x77),w (0x77)
4.35097333333333,477,y (0x79),y (0x79)
4.35127583333333,478,{ (0x7B),{ (0x7B)
4.35157825,479,A (0x41),A (0x41)
4.35188075,480,C (0x43),C (0x43)
4.35218325,481,E (0x45),E (0x45)
4.35248575,482,G (0x47),G (0x47)
4.35278825,483,I (0x49),I (0x49)
4.35309075,484,K (0x4B),K (0x4B)
4.35339329166667,485,M (0x4D),M (0x4D)
4.35369579166667,486,O (0x4F),O (0x4F)
4.35399829166667,487,Q (0x51),Q (0x51)
4.35430079166667,488,S (0x53),S (0x53)
4.35460329166667,489,U (0x55),U (0x55)
4.35490579166667,490,W (0x57),W (0x57)
4.35520829166667,491,Y (0x59),Y (0x59)
4.35551079166667,492,[ (0x5B),[ (0x5B)
4.35581329166667,493,] (0x5D),] (0x5D)
4.35611583333333,494,_ (0x5F),_ (0x5F)
4.35641833333333,495,a (0x61),a (0x61)
4.35672083333333,496,c (0x63),c (0x63)
4.35702333333333,497,e (0x65),e (0x65)
4.35732583333333,498,g (0x67),g (0x67)
4.35762833333333,499,i (0x69),i (0x69)
4.35793083333333,500,k (0x6B),k (0x6B)
4.35823333333333,501,m (0x6D),m (0x6D)
4.35853583333333,502,o (0x6F),o (0x6F)
4.35883833333333,503,q (0x71),q (0x71)
4.359140875,504,s (0x73),s (0x73)
4.359443375,505,u (0x75),u (0x75)
4.359745875,506,w (0x77),w (0x77)
4.360048375,507,y (0x79),y (0x79)
4.360350875,508,{ (0x7B),{ (0x7B)
4.36065329166667,509,A (0x41),A (0x41)
4.36095579166667,510,C (0x43),C (0x43)
4.36125829166667,511,E (0x45),E (0x45)
4.36156079166667,512,G (0x47),G (0x47)
4.36186329166667,513,I (0x49),I (0x49)
4.36216579166667,514,K (0x4B),K (0x4B)
4.36246829166667,515,M (0x4D),M (0x4D)
4.36277079166667,516,O (0x4F),O (0x4F)
4.36307329166667,517,Q (0x51),Q (0x51)
4.36337583333333,518,S (0x53),S (0x53)
4.36367833333333,519,U (0x55),U (0x55)
4.36398083333333,520,W (0x57),W (0x57)
4.36428333333333,521,Y (0x59),Y (0x59)
4.36458583333333,522,[ (0x5B),[ (0x5B)
4.36488833333333,523,] (0x5D),] (0x5D)
4.36519083333333,524,_ (0x5F),_ (0x5F)
4.36549333333333,525,a (0x61),a (0x61)
4.36579583333333,526,c (0x63),c (0x63)
4.366098375,527,e (0x65),e (0x65)
4.366400875,528,g (0x67),g (0x67)
4.366703375,529,i (0x69),i (0x69)
4.367005875,530,k (0x6B),k (0x6B)
4.367308375,531,m (0x6D),m (0x6D)
4.367610875,532,o (0x6F),o (0x6F)
4.367913375,533,q (0x71),q (0x71)
4.368215875,534,s (0x73),s (0x73)
4.368518375,535,u (0x75),u (0x75)
4.368820875,536,w (0x77),w (0x77)
4.36912341666667,537,y (0x79),y (0x79)
4.36942591666667,538,{ (0x7B),{ (0x7B)
4.36972829166667,539,A (0x41),A (0x41)
4.37003079166667,540,C (0x43),C (0x43)
